 time            v(in)           v(out)         
 0.00000000e+00  0.00000000e+00  1.80000000e+00 
 1.00000000e-13  0.00000000e+00  1.80000000e+00 
 2.00000000e-13  0.00000000e+00  1.80000000e+00 
 4.00000000e-13  0.00000000e+00  1.80000000e+00 
 8.00000000e-13  0.00000000e+00  1.80000000e+00 
 1.60000000e-12  0.00000000e+00  1.80000000e+00 
 3.20000000e-12  0.00000000e+00  1.80000000e+00 
 6.40000000e-12  0.00000000e+00  1.80000000e+00 
 1.28000000e-11  0.00000000e+00  1.80000000e+00 
 2.28000000e-11  0.00000000e+00  1.80000000e+00 
 3.28000000e-11  0.00000000e+00  1.80000000e+00 
 4.28000000e-11  0.00000000e+00  1.80000000e+00 
 5.28000000e-11  0.00000000e+00  1.80000000e+00 
 6.28000000e-11  0.00000000e+00  1.80000000e+00 
 7.28000000e-11  0.00000000e+00  1.80000000e+00 
 8.28000000e-11  0.00000000e+00  1.80000000e+00 
 9.28000000e-11  0.00000000e+00  1.80000000e+00 
 1.02800000e-10  0.00000000e+00  1.80000000e+00 
 1.12800000e-10  0.00000000e+00  1.80000000e+00 
 1.22800000e-10  0.00000000e+00  1.80000000e+00 
 1.32800000e-10  0.00000000e+00  1.80000000e+00 
 1.42800000e-10  0.00000000e+00  1.80000000e+00 
 1.52800000e-10  0.00000000e+00  1.80000000e+00 
 1.62800000e-10  0.00000000e+00  1.80000000e+00 
 1.72800000e-10  0.00000000e+00  1.80000000e+00 
 1.82800000e-10  0.00000000e+00  1.80000000e+00 
 1.92800000e-10  0.00000000e+00  1.80000000e+00 
 2.02800000e-10  0.00000000e+00  1.80000000e+00 
 2.12800000e-10  0.00000000e+00  1.80000000e+00 
 2.22800000e-10  0.00000000e+00  1.80000000e+00 
 2.32800000e-10  0.00000000e+00  1.80000000e+00 
 2.42800000e-10  0.00000000e+00  1.80000000e+00 
 2.52800000e-10  0.00000000e+00  1.80000000e+00 
 2.62800000e-10  0.00000000e+00  1.80000000e+00 
 2.72800000e-10  0.00000000e+00  1.80000000e+00 
 2.82800000e-10  0.00000000e+00  1.80000000e+00 
 2.92800000e-10  0.00000000e+00  1.80000000e+00 
 3.02800000e-10  0.00000000e+00  1.80000000e+00 
 3.12800000e-10  0.00000000e+00  1.80000000e+00 
 3.22800000e-10  0.00000000e+00  1.80000000e+00 
 3.32800000e-10  0.00000000e+00  1.80000000e+00 
 3.42800000e-10  0.00000000e+00  1.80000000e+00 
 3.52800000e-10  0.00000000e+00  1.80000000e+00 
 3.62800000e-10  0.00000000e+00  1.80000000e+00 
 3.72800000e-10  0.00000000e+00  1.80000000e+00 
 3.82800000e-10  0.00000000e+00  1.80000000e+00 
 3.92800000e-10  0.00000000e+00  1.80000000e+00 
 4.02800000e-10  0.00000000e+00  1.80000000e+00 
 4.12800000e-10  0.00000000e+00  1.80000000e+00 
 4.22800000e-10  0.00000000e+00  1.80000000e+00 
 4.32800000e-10  0.00000000e+00  1.80000000e+00 
 4.42800000e-10  0.00000000e+00  1.80000000e+00 
 4.52800000e-10  0.00000000e+00  1.80000000e+00 
 4.62800000e-10  0.00000000e+00  1.80000000e+00 
 4.72800000e-10  0.00000000e+00  1.80000000e+00 
 4.82800000e-10  0.00000000e+00  1.80000000e+00 
 4.92800000e-10  0.00000000e+00  1.80000000e+00 
 5.02800000e-10  0.00000000e+00  1.80000000e+00 
 5.12800000e-10  0.00000000e+00  1.80000000e+00 
 5.22800000e-10  0.00000000e+00  1.80000000e+00 
 5.32800000e-10  0.00000000e+00  1.80000000e+00 
 5.42800000e-10  0.00000000e+00  1.80000000e+00 
 5.52800000e-10  0.00000000e+00  1.80000000e+00 
 5.62800000e-10  0.00000000e+00  1.80000000e+00 
 5.72800000e-10  0.00000000e+00  1.80000000e+00 
 5.82800000e-10  0.00000000e+00  1.80000000e+00 
 5.92800000e-10  0.00000000e+00  1.80000000e+00 
 6.02800000e-10  0.00000000e+00  1.80000000e+00 
 6.12800000e-10  0.00000000e+00  1.80000000e+00 
 6.22800000e-10  0.00000000e+00  1.80000000e+00 
 6.32800000e-10  0.00000000e+00  1.80000000e+00 
 6.42800000e-10  0.00000000e+00  1.80000000e+00 
 6.52800000e-10  0.00000000e+00  1.80000000e+00 
 6.62800000e-10  0.00000000e+00  1.80000000e+00 
 6.72800000e-10  0.00000000e+00  1.80000000e+00 
 6.82800000e-10  0.00000000e+00  1.80000000e+00 
 6.92800000e-10  0.00000000e+00  1.80000000e+00 
 7.02800000e-10  0.00000000e+00  1.80000000e+00 
 7.12800000e-10  0.00000000e+00  1.80000000e+00 
 7.22800000e-10  0.00000000e+00  1.80000000e+00 
 7.32800000e-10  0.00000000e+00  1.80000000e+00 
 7.42800000e-10  0.00000000e+00  1.80000000e+00 
 7.52800000e-10  0.00000000e+00  1.80000000e+00 
 7.62800000e-10  0.00000000e+00  1.80000000e+00 
 7.72800000e-10  0.00000000e+00  1.80000000e+00 
 7.82800000e-10  0.00000000e+00  1.80000000e+00 
 7.92800000e-10  0.00000000e+00  1.80000000e+00 
 8.02800000e-10  0.00000000e+00  1.80000000e+00 
 8.12800000e-10  0.00000000e+00  1.80000000e+00 
 8.22800000e-10  0.00000000e+00  1.80000000e+00 
 8.32800000e-10  0.00000000e+00  1.80000000e+00 
 8.42800000e-10  0.00000000e+00  1.80000000e+00 
 8.52800000e-10  0.00000000e+00  1.80000000e+00 
 8.62800000e-10  0.00000000e+00  1.80000000e+00 
 8.72800000e-10  0.00000000e+00  1.80000000e+00 
 8.82800000e-10  0.00000000e+00  1.80000000e+00 
 8.92800000e-10  0.00000000e+00  1.80000000e+00 
 9.02800000e-10  0.00000000e+00  1.80000000e+00 
 9.12800000e-10  0.00000000e+00  1.80000000e+00 
 9.22800000e-10  0.00000000e+00  1.80000000e+00 
 9.32800000e-10  0.00000000e+00  1.80000000e+00 
 9.42800000e-10  0.00000000e+00  1.80000000e+00 
 9.52800000e-10  0.00000000e+00  1.80000000e+00 
 9.62800000e-10  0.00000000e+00  1.80000000e+00 
 9.72800000e-10  0.00000000e+00  1.80000000e+00 
 9.82800000e-10  0.00000000e+00  1.80000000e+00 
 9.92800000e-10  0.00000000e+00  1.80000000e+00 
 1.00000000e-09  0.00000000e+00  1.80000000e+00 
 1.00100000e-09  9.00000000e-04  1.80071005e+00 
 1.00300000e-09  2.70000000e-03  1.80196910e+00 
 1.00700000e-09  6.30000000e-03  1.80370583e+00 
 1.01500000e-09  1.35000000e-02  1.80538025e+00 
 1.02500000e-09  2.25000000e-02  1.80599606e+00 
 1.03500000e-09  3.15000000e-02  1.80614581e+00 
 1.04500000e-09  4.05000000e-02  1.80620344e+00 
 1.05500000e-09  4.95000000e-02  1.80624175e+00 
 1.06500000e-09  5.85000000e-02  1.80627822e+00 
 1.07500000e-09  6.75000000e-02  1.80631436e+00 
 1.08500000e-09  7.65000000e-02  1.80635205e+00 
 1.09500000e-09  8.55000000e-02  1.80639066e+00 
 1.10500000e-09  9.45000000e-02  1.80643076e+00 
 1.11500000e-09  1.03500000e-01  1.80647215e+00 
 1.12500000e-09  1.12500000e-01  1.80651492e+00 
 1.13500000e-09  1.21500000e-01  1.80655922e+00 
 1.14500000e-09  1.30500000e-01  1.80660486e+00 
 1.15500000e-09  1.39500000e-01  1.80665222e+00 
 1.16500000e-09  1.48500000e-01  1.80670092e+00 
 1.17500000e-09  1.57500000e-01  1.80675150e+00 
 1.18500000e-09  1.66500000e-01  1.80680345e+00 
 1.19500000e-09  1.75500000e-01  1.80685741e+00 
 1.20500000e-09  1.84500000e-01  1.80691279e+00 
 1.21500000e-09  1.93500000e-01  1.80697030e+00 
 1.22500000e-09  2.02500000e-01  1.80702930e+00 
 1.23500000e-09  2.11500000e-01  1.80709052e+00 
 1.24500000e-09  2.20500000e-01  1.80715329e+00 
 1.25500000e-09  2.29500000e-01  1.80721837e+00 
 1.26500000e-09  2.38500000e-01  1.80728506e+00 
 1.27500000e-09  2.47500000e-01  1.80735411e+00 
 1.28500000e-09  2.56500000e-01  1.80742483e+00 
 1.29500000e-09  2.65500000e-01  1.80749792e+00 
 1.30500000e-09  2.74500000e-01  1.80757271e+00 
 1.31500000e-09  2.83500000e-01  1.80764986e+00 
 1.32500000e-09  2.92500000e-01  1.80772869e+00 
 1.33500000e-09  3.01500000e-01  1.80780980e+00 
 1.34500000e-09  3.10500000e-01  1.80789248e+00 
 1.35500000e-09  3.19500000e-01  1.80797728e+00 
 1.36500000e-09  3.28500000e-01  1.80806344e+00 
 1.37500000e-09  3.37500000e-01  1.80815140e+00 
 1.38500000e-09  3.46500000e-01  1.80824034e+00 
 1.39500000e-09  3.55500000e-01  1.80833055e+00 
 1.40500000e-09  3.64500000e-01  1.80842108e+00 
 1.41500000e-09  3.73500000e-01  1.80851202e+00 
 1.42500000e-09  3.82500000e-01  1.80860225e+00 
 1.43500000e-09  3.91500000e-01  1.80869156e+00 
 1.44500000e-09  4.00500000e-01  1.80877852e+00 
 1.45500000e-09  4.09500000e-01  1.80886255e+00 
 1.46500000e-09  4.18500000e-01  1.80894179e+00 
 1.47500000e-09  4.27500000e-01  1.80901510e+00 
 1.48500000e-09  4.36500000e-01  1.80908000e+00 
 1.49500000e-09  4.45500000e-01  1.80913461e+00 
 1.50500000e-09  4.54500000e-01  1.80917561e+00 
 1.51500000e-09  4.63500000e-01  1.80920009e+00 
 1.52500000e-09  4.72500000e-01  1.80920362e+00 
 1.53500000e-09  4.81500000e-01  1.80918197e+00 
 1.54500000e-09  4.90500000e-01  1.80912929e+00 
 1.55500000e-09  4.99500000e-01  1.80903972e+00 
 1.56500000e-09  5.08500000e-01  1.80890572e+00 
 1.57500000e-09  5.17500000e-01  1.80871960e+00 
 1.58500000e-09  5.26500000e-01  1.80847196e+00 
 1.59500000e-09  5.35500000e-01  1.80815323e+00 
 1.60500000e-09  5.44500000e-01  1.80775222e+00 
 1.61500000e-09  5.53500000e-01  1.80725763e+00 
 1.62500000e-09  5.62500000e-01  1.80665677e+00 
 1.63500000e-09  5.71500000e-01  1.80593701e+00 
 1.64500000e-09  5.80500000e-01  1.80508455e+00 
 1.65500000e-09  5.89500000e-01  1.80408585e+00 
 1.66500000e-09  5.98500000e-01  1.80292642e+00 
 1.67500000e-09  6.07500000e-01  1.80159214e+00 
 1.68500000e-09  6.16500000e-01  1.80006801e+00 
 1.69500000e-09  6.25500000e-01  1.79869607e+00 
 1.70500000e-09  6.34500000e-01  1.79706580e+00 
 1.71500000e-09  6.43500000e-01  1.79510788e+00 
 1.72500000e-09  6.52500000e-01  1.79290350e+00 
 1.73500000e-09  6.61500000e-01  1.79039597e+00 
 1.74500000e-09  6.70500000e-01  1.78763050e+00 
 1.75500000e-09  6.79500000e-01  1.78455209e+00 
 1.76500000e-09  6.88500000e-01  1.78118530e+00 
 1.77500000e-09  6.97500000e-01  1.77747967e+00 
 1.78500000e-09  7.06500000e-01  1.77344500e+00 
 1.79500000e-09  7.15500000e-01  1.76903383e+00 
 1.80500000e-09  7.24500000e-01  1.76424332e+00 
 1.81500000e-09  7.33500000e-01  1.75902591e+00 
 1.82500000e-09  7.42500000e-01  1.75336603e+00 
 1.83500000e-09  7.51500000e-01  1.74721190e+00 
 1.84500000e-09  7.60500000e-01  1.74053290e+00 
 1.85500000e-09  7.69500000e-01  1.73326704e+00 
 1.86500000e-09  7.78500000e-01  1.72536307e+00 
 1.87500000e-09  7.87500000e-01  1.71673872e+00 
 1.88500000e-09  7.96500000e-01  1.70730984e+00 
 1.89500000e-09  8.05500000e-01  1.69695446e+00 
 1.90500000e-09  8.14500000e-01  1.68552837e+00 
 1.91500000e-09  8.23500000e-01  1.67282753e+00 
 1.92500000e-09  8.32500000e-01  1.65858357e+00 
 1.93500000e-09  8.41500000e-01  1.64240897e+00 
 1.94500000e-09  8.50500000e-01  1.62375655e+00 
 1.95500000e-09  8.59500000e-01  1.60184673e+00 
 1.96500000e-09  8.68500000e-01  1.57565827e+00 
 1.97500000e-09  8.77500000e-01  1.54425927e+00 
 1.98500000e-09  8.86500000e-01  1.50735481e+00 
 1.99500000e-09  8.95500000e-01  1.46501432e+00 
 2.00000000e-09  9.00000000e-01  1.44178563e+00 
 2.00100000e-09  9.00000000e-01  1.43583534e+00 
 2.00300000e-09  9.00000000e-01  1.42423967e+00 
 2.00700000e-09  9.00000000e-01  1.40230057e+00 
 2.01500000e-09  9.00000000e-01  1.36249147e+00 
 2.02500000e-09  9.00000000e-01  1.31927102e+00 
 2.03500000e-09  9.00000000e-01  1.28182919e+00 
 2.04500000e-09  9.00000000e-01  1.24906419e+00 
 2.05500000e-09  9.00000000e-01  1.22014099e+00 
 2.06500000e-09  9.00000000e-01  1.19450826e+00 
 2.07500000e-09  9.00000000e-01  1.17168301e+00 
 2.08500000e-09  9.00000000e-01  1.15133070e+00 
 2.09500000e-09  9.00000000e-01  1.13312846e+00 
 2.10500000e-09  9.00000000e-01  1.11684731e+00 
 2.11500000e-09  9.00000000e-01  1.10225245e+00 
 2.12500000e-09  9.00000000e-01  1.08917580e+00 
 2.13500000e-09  9.00000000e-01  1.07743836e+00 
 2.14500000e-09  9.00000000e-01  1.06691193e+00 
 2.15500000e-09  9.00000000e-01  1.05745637e+00 
 2.16500000e-09  9.00000000e-01  1.04897187e+00 
 2.17500000e-09  9.00000000e-01  1.04134698e+00 
 2.18500000e-09  9.00000000e-01  1.03450312e+00 
 2.19500000e-09  9.00000000e-01  1.02835081e+00 
 2.20500000e-09  9.00000000e-01  1.02282786e+00 
 2.21500000e-09  9.00000000e-01  1.01786195e+00 
 2.22500000e-09  9.00000000e-01  1.01340379e+00 
 2.23500000e-09  9.00000000e-01  1.00939462e+00 
 2.24500000e-09  9.00000000e-01  1.00579541e+00 
 2.25500000e-09  9.00000000e-01  1.00255821e+00 
 2.26500000e-09  9.00000000e-01  9.99652200e-01 
 2.27500000e-09  9.00000000e-01  9.97038117e-01 
 2.28500000e-09  9.00000000e-01  9.94691694e-01 
 2.29500000e-09  9.00000000e-01  9.92580667e-01 
 2.30500000e-09  9.00000000e-01  9.90686043e-01 
 2.31500000e-09  9.00000000e-01  9.88981200e-01 
 2.32500000e-09  9.00000000e-01  9.87451378e-01 
 2.33500000e-09  9.00000000e-01  9.86074527e-01 
 2.34500000e-09  9.00000000e-01  9.84839279e-01 
 2.35500000e-09  9.00000000e-01  9.83727289e-01 
 2.36500000e-09  9.00000000e-01  9.82729912e-01 
 2.37500000e-09  9.00000000e-01  9.81831812e-01 
 2.38500000e-09  9.00000000e-01  9.81026521e-01 
 2.39500000e-09  9.00000000e-01  9.80301147e-01 
 2.40500000e-09  9.00000000e-01  9.79650967e-01 
 2.41500000e-09  9.00000000e-01  9.79065084e-01 
 2.42500000e-09  9.00000000e-01  9.78540158e-01 
 2.43500000e-09  9.00000000e-01  9.78066925e-01 
 2.44500000e-09  9.00000000e-01  9.77643142e-01 
 2.45500000e-09  9.00000000e-01  9.77260883e-01 
 2.46500000e-09  9.00000000e-01  9.76918772e-01 
 2.47500000e-09  9.00000000e-01  9.76609983e-01 
 2.48500000e-09  9.00000000e-01  9.76333820e-01 
 2.49500000e-09  9.00000000e-01  9.76084365e-01 
 2.50500000e-09  9.00000000e-01  9.75861454e-01 
 2.51500000e-09  9.00000000e-01  9.75659916e-01 
 2.52500000e-09  9.00000000e-01  9.75480004e-01 
 2.53500000e-09  9.00000000e-01  9.75317166e-01 
 2.54500000e-09  9.00000000e-01  9.75171973e-01 
 2.55500000e-09  9.00000000e-01  9.75040388e-01 
 2.56500000e-09  9.00000000e-01  9.74923228e-01 
 2.57500000e-09  9.00000000e-01  9.74816886e-01 
 2.58500000e-09  9.00000000e-01  9.74722359e-01 
 2.59500000e-09  9.00000000e-01  9.74636405e-01 
 2.60500000e-09  9.00000000e-01  9.74560151e-01 
 2.61500000e-09  9.00000000e-01  9.74490663e-01 
 2.62500000e-09  9.00000000e-01  9.74429164e-01 
 2.63500000e-09  9.00000000e-01  9.74372976e-01 
 2.64500000e-09  9.00000000e-01  9.74323387e-01 
 2.65500000e-09  9.00000000e-01  9.74277943e-01 
 2.66500000e-09  9.00000000e-01  9.74237968e-01 
 2.67500000e-09  9.00000000e-01  9.74201203e-01 
 2.68500000e-09  9.00000000e-01  9.74168990e-01 
 2.69500000e-09  9.00000000e-01  9.74139235e-01 
 2.70500000e-09  9.00000000e-01  9.74113287e-01 
 2.71500000e-09  9.00000000e-01  9.74089196e-01 
 2.72500000e-09  9.00000000e-01  9.74068304e-01 
 2.73500000e-09  9.00000000e-01  9.74048790e-01 
 2.74500000e-09  9.00000000e-01  9.74031978e-01 
 2.75500000e-09  9.00000000e-01  9.74016163e-01 
 2.76500000e-09  9.00000000e-01  9.74002644e-01 
 2.77500000e-09  9.00000000e-01  9.73989816e-01 
 2.78500000e-09  9.00000000e-01  9.73978954e-01 
 2.79500000e-09  9.00000000e-01  9.73968543e-01 
 2.80500000e-09  9.00000000e-01  9.73959823e-01 
 2.81500000e-09  9.00000000e-01  9.73951365e-01 
 2.82500000e-09  9.00000000e-01  9.73944374e-01 
 2.83500000e-09  9.00000000e-01  9.73937494e-01 
 2.84500000e-09  9.00000000e-01  9.73931897e-01 
 2.85500000e-09  9.00000000e-01  9.73926294e-01 
 2.86500000e-09  9.00000000e-01  9.73921821e-01 
 2.87500000e-09  9.00000000e-01  9.73917251e-01 
 2.88500000e-09  9.00000000e-01  9.73913683e-01 
 2.89500000e-09  9.00000000e-01  9.73909949e-01 
 2.90500000e-09  9.00000000e-01  9.73907111e-01 
 2.91500000e-09  9.00000000e-01  9.73904054e-01 
 2.92500000e-09  9.00000000e-01  9.73901803e-01 
 2.93500000e-09  9.00000000e-01  9.73899294e-01 
 2.94500000e-09  9.00000000e-01  9.73897516e-01 
 2.95500000e-09  9.00000000e-01  9.73895451e-01 
 2.96500000e-09  9.00000000e-01  9.73894054e-01 
 2.97500000e-09  9.00000000e-01  9.73892349e-01 
 2.98500000e-09  9.00000000e-01  9.73891257e-01 
 2.99500000e-09  9.00000000e-01  9.73889844e-01 
 3.00500000e-09  9.00000000e-01  9.73888998e-01 
 3.01500000e-09  9.00000000e-01  9.73887823e-01 
 3.02500000e-09  9.00000000e-01  9.73887173e-01 
 3.03500000e-09  9.00000000e-01  9.73886190e-01 
 3.04500000e-09  9.00000000e-01  9.73885699e-01 
 3.05500000e-09  9.00000000e-01  9.73884873e-01 
 3.06500000e-09  9.00000000e-01  9.73884508e-01 
 3.07500000e-09  9.00000000e-01  9.73883810e-01 
 3.08500000e-09  9.00000000e-01  9.73883545e-01 
 3.09500000e-09  9.00000000e-01  9.73882952e-01 
 3.10500000e-09  9.00000000e-01  9.73882768e-01 
 3.11500000e-09  9.00000000e-01  9.73882260e-01 
 3.12500000e-09  9.00000000e-01  9.73882139e-01 
 3.13500000e-09  9.00000000e-01  9.73881701e-01 
 3.14500000e-09  9.00000000e-01  9.73881631e-01 
 3.15500000e-09  9.00000000e-01  9.73881251e-01 
 3.16500000e-09  9.00000000e-01  9.73881220e-01 
 3.17500000e-09  9.00000000e-01  9.73880887e-01 
 3.18500000e-09  9.00000000e-01  9.73880888e-01 
 3.19500000e-09  9.00000000e-01  9.73880594e-01 
 3.20500000e-09  9.00000000e-01  9.73880620e-01 
 3.21500000e-09  9.00000000e-01  9.73880358e-01 
 3.22500000e-09  9.00000000e-01  9.73880402e-01 
 3.23500000e-09  9.00000000e-01  9.73880168e-01 
 3.24500000e-09  9.00000000e-01  9.73880226e-01 
 3.25500000e-09  9.00000000e-01  9.73880015e-01 
 3.26500000e-09  9.00000000e-01  9.73880084e-01 
 3.27500000e-09  9.00000000e-01  9.73879891e-01 
 3.28500000e-09  9.00000000e-01  9.73879969e-01 
 3.29500000e-09  9.00000000e-01  9.73879792e-01 
 3.30500000e-09  9.00000000e-01  9.73879875e-01 
 3.31500000e-09  9.00000000e-01  9.73879712e-01 
 3.32500000e-09  9.00000000e-01  9.73879799e-01 
 3.33500000e-09  9.00000000e-01  9.73879648e-01 
 3.34500000e-09  9.00000000e-01  9.73879738e-01 
 3.35500000e-09  9.00000000e-01  9.73879597e-01 
 3.36500000e-09  9.00000000e-01  9.73879688e-01 
 3.37500000e-09  9.00000000e-01  9.73879555e-01 
 3.38500000e-09  9.00000000e-01  9.73879647e-01 
 3.39500000e-09  9.00000000e-01  9.73879522e-01 
 3.40500000e-09  9.00000000e-01  9.73879614e-01 
 3.41500000e-09  9.00000000e-01  9.73879496e-01 
 3.42500000e-09  9.00000000e-01  9.73879587e-01 
 3.43500000e-09  9.00000000e-01  9.73879475e-01 
 3.44500000e-09  9.00000000e-01  9.73879565e-01 
 3.45500000e-09  9.00000000e-01  9.73879458e-01 
 3.46500000e-09  9.00000000e-01  9.73879547e-01 
 3.47500000e-09  9.00000000e-01  9.73879445e-01 
 3.48500000e-09  9.00000000e-01  9.73879532e-01 
 3.49500000e-09  9.00000000e-01  9.73879434e-01 
 3.50500000e-09  9.00000000e-01  9.73879519e-01 
 3.51500000e-09  9.00000000e-01  9.73879426e-01 
 3.52500000e-09  9.00000000e-01  9.73879509e-01 
 3.53500000e-09  9.00000000e-01  9.73879420e-01 
 3.54500000e-09  9.00000000e-01  9.73879501e-01 
 3.55500000e-09  9.00000000e-01  9.73879415e-01 
 3.56500000e-09  9.00000000e-01  9.73879494e-01 
 3.57500000e-09  9.00000000e-01  9.73879411e-01 
 3.58500000e-09  9.00000000e-01  9.73879488e-01 
 3.59500000e-09  9.00000000e-01  9.73879408e-01 
 3.60500000e-09  9.00000000e-01  9.73879483e-01 
 3.61500000e-09  9.00000000e-01  9.73879406e-01 
 3.62500000e-09  9.00000000e-01  9.73879479e-01 
 3.63500000e-09  9.00000000e-01  9.73879404e-01 
 3.64500000e-09  9.00000000e-01  9.73879476e-01 
 3.65500000e-09  9.00000000e-01  9.73879403e-01 
 3.66500000e-09  9.00000000e-01  9.73879473e-01 
 3.67500000e-09  9.00000000e-01  9.73879403e-01 
 3.68500000e-09  9.00000000e-01  9.73879470e-01 
 3.69500000e-09  9.00000000e-01  9.73879402e-01 
 3.70500000e-09  9.00000000e-01  9.73879468e-01 
 3.71500000e-09  9.00000000e-01  9.73879402e-01 
 3.72500000e-09  9.00000000e-01  9.73879466e-01 
 3.73500000e-09  9.00000000e-01  9.73879402e-01 
 3.74500000e-09  9.00000000e-01  9.73879464e-01 
 3.75500000e-09  9.00000000e-01  9.73879402e-01 
 3.76500000e-09  9.00000000e-01  9.73879463e-01 
 3.77500000e-09  9.00000000e-01  9.73879402e-01 
 3.78500000e-09  9.00000000e-01  9.73879461e-01 
 3.79500000e-09  9.00000000e-01  9.73879403e-01 
 3.80500000e-09  9.00000000e-01  9.73879460e-01 
 3.81500000e-09  9.00000000e-01  9.73879403e-01 
 3.82500000e-09  9.00000000e-01  9.73879459e-01 
 3.83500000e-09  9.00000000e-01  9.73879404e-01 
 3.84500000e-09  9.00000000e-01  9.73879458e-01 
 3.85500000e-09  9.00000000e-01  9.73879404e-01 
 3.86500000e-09  9.00000000e-01  9.73879457e-01 
 3.87500000e-09  9.00000000e-01  9.73879405e-01 
 3.88500000e-09  9.00000000e-01  9.73879456e-01 
 3.89500000e-09  9.00000000e-01  9.73879405e-01 
 3.90500000e-09  9.00000000e-01  9.73879455e-01 
 3.91500000e-09  9.00000000e-01  9.73879406e-01 
 3.92500000e-09  9.00000000e-01  9.73879454e-01 
 3.93500000e-09  9.00000000e-01  9.73879406e-01 
